# AMBA 3 AHB-Lite 协议规范总结

> 来源：ARM IHI 0033A，AMBA 3 AHB-Lite Protocol v1.0，Issue A，2006  
> 用途：开发参考，中文摘要

---

## 1. 协议概述

AHB-Lite 是 AMBA 架构中的**高性能可综合总线接口**，核心特征：

- **单主设备**总线接口（多主需通过 Multi-layer 互连实现）
- **流水线**操作：地址阶段与数据阶段重叠
- **单时钟沿**操作（上升沿采样）
- **非三态**实现
- 支持**突发传输**（固定长度 4/8/16 拍、未定义长度）
- 支持**宽数据总线**：32、64、128、256、512、1024 位
- 典型从设备：内部存储器、外部存储接口、高带宽外设
- 低带宽外设通常放在 APB 上，通过 AHB-to-APB 桥连接

### 系统组件

| 组件 | 职责 |
|------|------|
| **Master（主设备）** | 提供地址和控制信息，发起读写操作 |
| **Slave（从设备）** | 响应主设备发起的传输，通过 HSELx 选择信号控制响应时机 |
| **Decoder（译码器）** | 对地址译码，为每个从设备生成 HSELx 选择信号，同时控制多路选择器 |
| **Multiplexor（多路选择器）** | 将被选中从设备的读数据和响应信号路由回主设备 |

### 多主系统

AHB-Lite 本身是单主总线，多主系统需使用 **Multi-layer AHB-Lite 互连**：

- 每个主设备位于独立层，彼此隔离
- 互连组件负责从设备仲裁
- 共享从设备需防止同时访问

---

## 2. 信号描述

> 所有 AHB-Lite 信号以 **H** 为前缀，与 APB 的 P 前缀区分。

### 2.1 全局信号

| 信号 | 描述 |
|------|------|
| `HCLK` | 总线时钟，所有信号在 **HCLK 上升沿**采样 |
| `HRESETn` | 总线复位，**低电平有效**（AHB-Lite 中唯一低电平有效信号） |

### 2.2 主设备信号

| 信号 | 宽度 | 目标 | 描述 |
|------|------|------|------|
| `HADDR[31:0]` | 32 | Slave & Decoder | 系统地址总线 |
| `HBURST[2:0]` | 3 | Slave | 突发类型（单次/增量/回卷，4/8/16拍） |
| `HMASTLOCK` | 1 | Slave | 锁定传输指示，HIGH 表示当前传输属于锁定序列 |
| `HPROT[3:0]` | 4 | Slave | 保护控制（特权/用户、数据/指令、缓存/缓冲） |
| `HSIZE[2:0]` | 3 | Slave | 传输大小（字节/半字/字/...，最大1024位） |
| `HTRANS[1:0]` | 2 | Slave | 传输类型（IDLE/BUSY/NONSEQ/SEQ） |
| `HWDATA[31:0]` | 32+ | Slave | 写数据总线（建议最小32位，可扩展） |
| `HWRITE` | 1 | Slave | 传输方向：HIGH=写，LOW=读；突发中必须保持不变 |

### 2.3 从设备信号

| 信号 | 宽度 | 目标 | 描述 |
|------|------|------|------|
| `HRDATA[31:0]` | 32+ | Multiplexor | 读数据总线 |
| `HREADYOUT` | 1 | Multiplexor | HIGH 表示传输完成，LOW 插入等待状态 |
| `HRESP` | 1 | Multiplexor | 传输响应：LOW=OKAY，HIGH=ERROR |

### 2.4 译码器信号

| 信号 | 描述 |
|------|------|
| `HSELx` | 从设备选择信号，每个从设备一个，是地址的组合逻辑译码。从设备首次被选中时还须监测 HREADY 确保前一传输完成 |

### 2.5 多路选择器信号

| 信号 | 描述 |
|------|------|
| `HRDATA` | 经多路选择器选通的读数据 |
| `HREADY` | 指示前一传输是否完成（主设备和所有从设备可见） |
| `HRESP` | 经多路选择器选通的传输响应 |

> **HREADY vs HREADYOUT**：HREADYOUT 是从设备本地输出；HREADY 是经多路选择器后全局可见的信号，表示前一次传输是否完成。

---

## 3. 传输机制

### 3.1 基本传输

每次传输包含两个阶段：

| 阶段 | 持续时间 |
|------|----------|
| **地址阶段** | 1 个 HCLK 周期（可被前一传输的等待状态延长） |
| **数据阶段** | 1 个或多个 HCLK 周期（由 HREADY 控制） |

- 地址阶段与前一传输的数据阶段**重叠**（流水线特性）
- 从设备**不能**延长地址阶段，必须能在单周期内采样地址
- 从设备可通过 `HREADY=LOW` 延长数据阶段（插入等待状态）

**无等待状态传输流程：**

1. 主设备在 HCLK 上升沿后驱动地址和控制信号
2. 从设备在下一个 HCLK 上升沿采样地址和控制
3. 从设备驱动 HREADY 响应，主设备在第三个 HCLK 上升沿采样

**写传输**：主设备在 HWDATA 上广播数据，等待状态期间数据必须保持稳定  
**读传输**：从设备在 HRDATA 上提供数据，仅在传输即将完成时需提供有效数据

### 3.2 传输类型（HTRANS）

| HTRANS[1:0] | 类型 | 描述 |
|-------------|------|------|
| `00` | **IDLE** | 无数据传输请求。从设备必须以零等待状态 OKAY 响应 |
| `01` | **BUSY** | 主设备在突发中间插入空闲周期。地址和控制信号反映突发中下一次传输。从设备必须以零等待状态 OKAY 响应 |
| `10` | **NONSEQ** | 单次传输或突发的第一次传输，地址与前一次无关 |
| `11` | **SEQ** | 突发中后续传输，地址 = 前一地址 + 传输大小（字节）。回卷突发在边界处回卷 |

### 3.3 锁定传输（HMASTLOCK）

- `HMASTLOCK=HIGH` 表示当前传输序列不可分割
- 典型用途：SWP 指令的读-修改-写原子操作（信号量保护）
- 锁定传输后建议主设备插入 IDLE 传输
- 仅多端口存储控制器等可被多主访问的从设备需实现 HMASTLOCK

### 3.4 传输大小（HSIZE）

| HSIZE[2:0] | 大小 | 描述 |
|------------|------|------|
| 000 | 8 位 | Byte |
| 001 | 16 位 | Halfword |
| 010 | 32 位 | Word |
| 011 | 64 位 | Doubleword |
| 100 | 128 位 | 4-word line |
| 101 | 256 位 | 8-word line |
| 110 | 512 位 | — |
| 111 | 1024 位 | — |

- HSIZE 必须 ≤ 数据总线宽度
- 与 HBURST 一起确定回卷突发的地址边界
- 突发传输期间 HSIZE 必须保持不变

### 3.5 突发操作（HBURST）

| HBURST[2:0] | 类型 | 描述 |
|-------------|------|------|
| 000 | **SINGLE** | 单次传输 |
| 001 | **INCR** | 增量突发，未定义长度 |
| 010 | **WRAP4** | 4 拍回卷突发 |
| 011 | **INCR4** | 4 拍增量突发 |
| 100 | **WRAP8** | 8 拍回卷突发 |
| 101 | **INCR8** | 8 拍增量突发 |
| 110 | **WRAP16** | 16 拍回卷突发 |
| 111 | **INCR16** | 16 拍增量突发 |

**关键规则：**

- **增量突发**：地址顺序递增，不回卷
- **回卷突发**：在地址边界处回卷。边界 = 拍数 × 传输大小
  - 例：4 拍 Word 回卷突发，边界 16 字节。起始地址 0x34 → 0x34, 0x38, 0x3C, 0x30
- 增量突发**不得跨越 1KB 地址边界**
- 所有突发传输必须**对齐**到传输大小边界
- 突发中所有传输的 HSIZE、HWRITE、HBURST 必须保持不变

**突发终止：**

- **BUSY 后终止**：仅 INCR（未定义长度）突发允许在 BUSY 后以 NONSEQ 或 IDLE 终止
- 固定长度突发（INCR4/8/16、WRAP4/8/16）必须以 SEQ 传输结束
- SINGLE 后必须跟 IDLE 或 NONSEQ
- **ERROR 响应**：主设备可取消剩余突发传输（非强制）
- **Multi-layer 互连终止**：互连组件可终止突发以允许其他主设备访问，从设备必须正确处理

---

## 4. 等待状态传输

从设备通过 `HREADY=LOW` 插入等待状态。等待期间主设备的传输类型和地址变更受限制：

### 4.1 传输类型变更规则

| 场景 | 允许的变更 |
|------|-----------|
| IDLE 传输 | 可从 IDLE 变为 NONSEQ，之后 HTRANS 必须保持不变直到 HREADY=HIGH |
| BUSY 传输（固定长度突发） | 可从 BUSY 变为 SEQ，之后 HTRANS 必须保持不变直到 HREADY=HIGH |
| BUSY 传输（INCR 未定义长度） | 可从 BUSY 变为任意类型（SEQ=继续，IDLE/NONSEQ=终止） |

### 4.2 地址变更规则

- 等待期间主设备**只能变更地址一次**
- **IDLE 传输**：可变更地址，但变为 NONSEQ 后地址必须保持不变直到 HREADY=HIGH
- **ERROR 响应后**：允许在 HREADY=LOW 时变更地址

---

## 5. 从设备响应

| HREADY | HRESP | 含义 |
|--------|-------|------|
| 1 | 0 (OKAY) | 传输成功完成 |
| 0 | 0 (OKAY) | 传输挂起（等待状态） |
| 0 | 1 (ERROR) | ERROR 响应第一周期 |
| 1 | 1 (ERROR) | ERROR 响应第二周期（传输结束） |

### 5.1 传输完成

`HREADY=HIGH && HRESP=OKAY` 表示传输成功完成。

### 5.2 传输挂起

从设备通过 `HREADY=LOW` 插入等待状态，此时 `HRESP` 必须为 OKAY。  
建议从设备插入的等待状态不超过 **16 个**。

### 5.3 ERROR 响应

- ERROR 响应需要 **2 个周期**：
  - 第一周期：`HRESP=ERROR, HREADY=LOW`
  - 第二周期：`HRESP=ERROR, HREADY=HIGH`
- 两周期响应是必需的：因为流水线特性，ERROR 开始时下一传输的地址已广播，需两周期让主设备取消下一访问并驱动 HTRANS=IDLE
- 若需更多周期才能给出 ERROR，可在开始前插入等待状态（HREADY=LOW, HRESP=OKAY）
- 主设备收到 ERROR 后可取消剩余突发传输（非强制）

---

## 6. 总线互连

### 6.1 地址译码

- 中央译码器对高位地址进行组合逻辑译码，生成各从设备的 `HSELx`
- 从设备**仅在 HREADY=HIGH 时**采样 HSELx、地址和控制信号
- 单个从设备最小地址空间：**1KB**
- 所有主设备设计确保增量传输不跨越 1KB 边界

**默认从设备：**

- 内存映射未完全填满时需实现默认从设备
- NONSEQ/SEQ 访问不存在地址 → 默认从设备返回 ERROR
- IDLE/BUSY 访问不存在地址 → 默认从设备返回零等待 OKAY

### 6.2 多路选择器互连

- 主设备将地址和控制信号广播到所有从设备
- 译码器选择适当从设备
- 被选从设备的响应数据经读数据多路选择器路由回主设备

---

## 7. 数据总线

### 7.1 概述

- **独立读写数据总线**：HRDATA（读）和 HWDATA（写），无需三态驱动
- 建议最小宽度 32 位
- 允许宽度：8、16、32、64、128、256、512、1024 位
- 建议最大 256 位

### 7.2 字节通道映射

**小端（Little-endian）32 位总线：**

| 传输大小 | 地址偏移 | DATA[31:24] | DATA[23:16] | DATA[15:8] | DATA[7:0] |
|----------|----------|-------------|-------------|------------|-----------|
| Word | 0 | Active | Active | Active | Active |
| Halfword | 0 | — | — | Active | Active |
| Halfword | 2 | Active | Active | — | — |
| Byte | 0 | — | — | — | Active |
| Byte | 1 | — | — | Active | — |
| Byte | 2 | — | Active | — | — |
| Byte | 3 | Active | — | — | — |

**大端（Big-endian）32 位总线：**

| 传输大小 | 地址偏移 | DATA[31:24] | DATA[23:16] | DATA[15:8] | DATA[7:0] |
|----------|----------|-------------|-------------|------------|-----------|
| Word | 0 | Active | Active | Active | Active |
| Halfword | 0 | Active | Active | — | — |
| Halfword | 2 | — | — | Active | Active |
| Byte | 0 | Active | — | — | — |
| Byte | 1 | — | Active | — | — |
| Byte | 2 | — | — | Active | — |
| Byte | 3 | — | — | — | Active |

### 7.3 端序

- 总线上所有模块**必须使用相同端序**
- **不支持动态端序切换**
- 建议特定应用模块固定端序，通用模块可设计为双端序

### 7.4 窄从设备/宽从设备适配

- **窄从设备接宽总线**：通过外部逻辑适配，无需修改内部设计。输出可复制到宽总线两半
- **宽从设备接窄总线**：通过外部逻辑拆分/合并
- 主设备不得尝试比数据总线更宽的传输（HSIZE 不得超过总线宽度）

---

## 8. 保护控制（HPROT）

| 位 | 含义 | 0 | 1 |
|----|------|---|---|
| HPROT[0] | 数据/指令 | 指令预取 | 数据访问 |
| HPROT[1] | 特权级别 | 用户模式 | 特权模式 |
| HPROT[2] | 可缓冲性 | 不可缓冲 | 可缓冲 |
| HPROT[3] | 可缓存性 | 不可缓存 | 可缓存 |

- 若主设备无法生成准确保护信息，建议设为 `b0011`（非缓存、非缓冲、特权、数据访问）
- HPROT 与地址总线相同时序，突发期间必须保持不变

---

## 9. 时钟和复位

### 9.1 时钟（HCLK）

- 所有输入信号在 HCLK **上升沿**采样
- 所有输出信号在 HCLK 上升沿**之后**变化

### 9.2 复位（HRESETn）

- 唯一低电平有效信号
- 复位可**异步置位**，但必须**同步解除断言**（在 HCLK 上升沿后）
- 复位期间：
  - 主设备：地址和控制信号必须为有效电平，`HTRANS=IDLE`
  - 从设备：`HREADYOUT=HIGH`

---

## 10. 开发要点速查

### 最小 AHB-Lite 实现所需信号

**主设备侧：** `HADDR`, `HTRANS`, `HWRITE`, `HSIZE`, `HBURST`, `HPROT`, `HWDATA`, `HMASTLOCK`

**从设备侧：** `HRDATA`, `HREADYOUT`, `HRESP`

**全局：** `HCLK`, `HRESETn`

**互连：** `HSELx`, `HREADY`（经多路选择器）

### 典型无等待状态读传输时序

```
周期1: 主设备驱动 HADDR, HTRANS=NONSEQ, HWRITE=0, HSIZE, HBURST
周期2: 从设备采样地址和控制；主设备驱动下一传输的地址
周期3: 从设备提供 HRDATA, HREADY=HIGH；主设备采样数据
```

### 典型无等待状态写传输时序

```
周期1: 主设备驱动 HADDR, HTRANS=NONSEQ, HWRITE=1, HSIZE, HBURST
周期2: 从设备采样地址和控制；主设备驱动 HWDATA
周期3: 从设备采样 HWDATA (HREADY=HIGH)
```

### 关键设计约束

1. 所有信号在 **HCLK 上升沿**采样
2. 传输由**地址阶段 + 数据阶段**组成，两者**重叠**（流水线）
3. 从设备不能延长地址阶段，只能通过 HREADY 延长数据阶段
4. ERROR 响应**必须**为 2 周期
5. 增量突发**不得跨越 1KB 地址边界**
6. 突发期间 HWRITE、HSIZE、HBURST **必须保持不变**
7. HRESETn 是**唯一低电平有效**信号
8. 从设备仅在 **HREADY=HIGH** 时采样 HSELx 和地址/控制信号
9. 单个从设备最小地址空间 **1KB**
10. 建议等待状态不超过 **16 个**
11. IDLE/BUSY 传输从设备必须以零等待 OKAY 响应
